time	V(bpsksignal)	V(carriersignal)	V(demodedsignal)	V(injectedcarrier)	V(modulatingsignal)
0.000000000000000e+00	-1.243136e+00	0.000000e+00	-5.070463e+00	0.000000e+00	-5.000000e+00
9.999999717180685e-10	-1.243136e+00	3.141593e-04	-5.070463e+00	3.141593e-04	-5.000000e+00
1.999999943436137e-09	-1.243136e+00	6.283185e-04	-5.070463e+00	6.283185e-04	-5.000000e+00
3.999999886872274e-09	-1.243136e+00	1.256637e-03	-5.070463e+00	1.256637e-03	-5.000000e+00
7.999999773744548e-09	-1.243135e+00	2.513274e-03	-5.070463e+00	2.513274e-03	-5.000000e+00
1.599999954748910e-08	-1.243133e+00	5.026547e-03	-5.070463e+00	5.026547e-03	-5.000000e+00
3.199999909497819e-08	-1.243129e+00	1.005309e-02	-5.070463e+00	1.005309e-02	-5.000000e+00
5.480872034555013e-08	-1.243113e+00	1.721863e-02	-5.070463e+00	1.721863e-02	-5.000000e+00
8.465625180483567e-08	-1.243052e+00	2.659542e-02	-5.070463e+00	2.659542e-02	-5.000000e+00
1.219149146591951e-07	-1.242850e+00	3.830032e-02	-5.070463e+00	3.830032e-02	-5.000000e+00
1.801889052235166e-07	-1.242058e+00	5.660680e-02	-5.070463e+00	5.660680e-02	-5.000000e+00
2.424425015761892e-07	-1.240312e+00	7.616261e-02	-5.070463e+00	7.616261e-02	-5.000000e+00
3.278650347277647e-07	-1.236012e+00	1.029946e-01	-5.070463e+00	1.029946e-01	-5.000000e+00
4.278035708975064e-07	-1.228021e+00	1.343823e-01	-5.070463e+00	1.343823e-01	-5.000000e+00
5.757544086818272e-07	-1.211075e+00	1.808391e-01	-5.070463e+00	1.808391e-01	-5.000000e+00
7.125001205370047e-07	-1.191397e+00	2.237637e-01	-5.070463e+00	2.237637e-01	-5.000000e+00
8.429027910747445e-07	-1.170559e+00	2.646819e-01	-5.070463e+00	2.646819e-01	-5.000000e+00
9.693343513512016e-07	-1.149490e+00	3.043371e-01	-5.070463e+00	3.043371e-01	-5.000000e+00
1.089366980647883e-06	-1.129358e+00	3.419676e-01	-5.070463e+00	3.419676e-01	-5.000000e+00
1.217625759367511e-06	-1.108201e+00	3.821554e-01	-5.070463e+00	3.821554e-01	-5.000000e+00
1.378898592440783e-06	-1.082634e+00	4.326520e-01	-5.070463e+00	4.326520e-01	-5.000000e+00
1.511513270640086e-06	-1.062703e+00	4.741424e-01	-5.070463e+00	4.741424e-01	-5.000000e+00
1.644574163374467e-06	-1.043758e+00	5.157393e-01	-5.070463e+00	5.157393e-01	-5.000000e+00
1.799147684973380e-06	-1.022917e+00	5.640159e-01	-5.070463e+00	5.640159e-01	-5.000000e+00
1.962949360255104e-06	-1.001825e+00	6.151165e-01	-5.070463e+00	6.151165e-01	-5.000000e+00
2.146834279070468e-06	-9.787413e-01	6.724045e-01	-5.070463e+00	6.724045e-01	-5.000000e+00
2.366642331178680e-06	-9.511304e-01	7.407656e-01	-5.070463e+00	7.407656e-01	-5.000000e+00
2.663277703604033e-06	-9.129118e-01	8.327940e-01	-5.070463e+00	8.327940e-01	-5.000000e+00
2.900329759373898e-06	-8.814692e-01	9.061307e-01	-5.070463e+00	9.061307e-01	-5.000000e+00
3.144914397642900e-06	-8.485330e-01	9.815869e-01	-5.070463e+00	9.815869e-01	-5.000000e+00
3.416048357972061e-06	-8.119760e-01	1.064962e+00	-5.070463e+00	1.064962e+00	-5.000000e+00
3.788134600171762e-06	-7.623886e-01	1.178873e+00	-5.070463e+00	1.178873e+00	-5.000000e+00
4.106659314929783e-06	-7.205964e-01	1.275877e+00	-5.070463e+00	1.275877e+00	-5.000000e+00
4.519275274524158e-06	-6.670362e-01	1.400770e+00	-5.070463e+00	1.400770e+00	-5.000000e+00
4.955099110402573e-06	-6.107751e-01	1.531663e+00	-5.070463e+00	1.531663e+00	-5.000000e+00
5.541364402098108e-06	-5.355304e-01	1.705911e+00	-5.070463e+00	1.705911e+00	-5.000000e+00
6.239868080577765e-06	-4.470874e-01	1.910476e+00	-5.070463e+00	1.910476e+00	-5.000000e+00
7.074850536075314e-06	-3.435839e-01	2.150150e+00	-5.070463e+00	2.150150e+00	-5.000000e+00
8.405104121902433e-06	-1.838853e-01	2.519501e+00	-5.070463e+00	2.519501e+00	-5.000000e+00
9.757937918820675e-06	-2.895512e-02	2.877066e+00	-5.070463e+00	2.877066e+00	-5.000000e+00
1.201096147977978e-05	2.088218e-01	3.425245e+00	-5.070463e+00	3.425245e+00	-5.000000e+00
1.585548655055722e-05	5.450993e-01	4.197139e+00	-5.070463e+00	4.197139e+00	-5.000000e+00
1.969345635474651e-05	7.770300e-01	4.724643e+00	-5.070463e+00	4.724643e+00	-5.000000e+00
2.446622199565249e-05	9.009531e-01	4.997188e+00	-5.070463e+00	4.997188e+00	-5.000000e+00
2.630154173671320e-05	8.978758e-01	4.983290e+00	-5.070463e+00	4.983290e+00	-5.000000e+00
2.861841332059016e-05	8.531113e-01	4.871334e+00	-5.070463e+00	4.871334e+00	-5.000000e+00
3.237239414758045e-05	6.878401e-01	4.473089e+00	-5.070463e+00	4.473089e+00	-5.000000e+00
3.587175139433146e-05	4.371563e-01	3.878123e+00	-5.070463e+00	3.878123e+00	-5.000000e+00
4.013470531911734e-05	2.472286e-02	2.904585e+00	-5.070463e+00	2.904585e+00	-5.000000e+00
4.526331848996996e-05	-5.882496e-01	1.466202e+00	-5.070463e+00	1.466202e+00	-5.000000e+00
5.000320396014555e-05	-1.216730e+00	-1.006554e-03	-5.070463e+00	-1.006554e-03	-5.000000e+00
5.787126150590980e-05	-2.238230e+00	-2.373248e+00	-5.070463e+00	-2.373248e+00	-5.000000e+00
6.672680426467611e-05	-3.093353e+00	-4.339542e+00	-5.070463e+00	-4.339542e+00	-5.000000e+00
7.223705638410323e-05	-3.350753e+00	-4.924846e+00	-5.070463e+00	-4.924846e+00	-5.000000e+00
7.546435842957071e-05	-3.386528e+00	-4.997872e+00	-5.070463e+00	-4.997872e+00	-5.000000e+00
7.725608204248226e-05	-3.368596e+00	-4.949849e+00	-5.070463e+00	-4.949849e+00	-5.000000e+00
7.979658130632177e-05	-3.297725e+00	-4.774642e+00	-5.070463e+00	-4.774642e+00	-5.000000e+00
8.237669573486208e-05	-3.172578e+00	-4.472485e+00	-5.070463e+00	-4.472485e+00	-5.000000e+00
8.513825744996796e-05	-2.982507e+00	-4.019403e+00	-5.070463e+00	-4.019403e+00	-5.000000e+00
9.002175092488974e-05	-2.523275e+00	-2.933395e+00	-5.070463e+00	-2.933395e+00	-5.000000e+00
9.608213073128622e-05	-1.792180e+00	-1.218441e+00	-5.070463e+00	-1.218441e+00	-5.000000e+00
1.020930445104227e-04	-9.884400e-01	6.556556e-01	-5.070463e+00	6.556556e-01	-5.000000e+00
1.085090305295553e-04	-1.720417e-01	2.547649e+00	-5.070463e+00	2.547649e+00	-5.000000e+00
1.150370356814111e-04	4.815676e-01	4.051913e+00	-5.070463e+00	4.051913e+00	-5.000000e+00
1.212196340900372e-04	8.371085e-01	4.859614e+00	-5.070463e+00	4.859614e+00	-5.000000e+00
1.250726357651578e-04	9.031745e-01	4.999948e+00	-5.070463e+00	4.999948e+00	-5.000000e+00
1.266182740039685e-04	8.942772e-01	4.974175e+00	-5.070463e+00	4.974175e+00	-5.000000e+00
1.291333144118461e-04	8.372744e-01	4.832330e+00	-5.070463e+00	4.832330e+00	-5.000000e+00
1.332012574078841e-04	6.363974e-01	4.350724e+00	-5.070463e+00	4.350724e+00	-5.000000e+00
1.373599820714349e-04	3.054597e-01	3.566501e+00	-5.070463e+00	3.566501e+00	-5.000000e+00
1.447149144685182e-04	-5.176778e-01	1.630011e+00	-5.070463e+00	1.630011e+00	-5.000000e+00
1.509229725685287e-04	-1.341042e+00	-2.897979e-01	-5.070463e+00	-2.897979e-01	-5.000000e+00
1.571537903722297e-04	-2.151641e+00	-2.172513e+00	-5.070463e+00	-2.172513e+00	-5.000000e+00
1.624550373051042e-04	-2.739255e+00	-3.525532e+00	-5.070463e+00	-3.525532e+00	-5.000000e+00
1.661667832606864e-04	-3.053555e+00	-4.249483e+00	-5.070463e+00	-4.249483e+00	-5.000000e+00
1.689724389864086e-04	-3.227620e+00	-4.645688e+00	-5.070463e+00	-4.645688e+00	-5.000000e+00
1.709381779340494e-04	-3.311932e+00	-4.838049e+00	-5.070463e+00	-4.838049e+00	-5.000000e+00
1.724841971840328e-04	-3.356645e+00	-4.937663e+00	-5.070463e+00	-4.937663e+00	-5.000000e+00
1.741023381720225e-04	-3.382182e+00	-4.992049e+00	-5.070463e+00	-4.992049e+00	-5.000000e+00
1.756450861907964e-04	-3.385699e+00	-4.995893e+00	-5.070463e+00	-4.995893e+00	-5.000000e+00
1.771118300946079e-04	-3.371170e+00	-4.956048e+00	-5.070463e+00	-4.956048e+00	-5.000000e+00
1.783315295949806e-04	-3.345034e+00	-4.890856e+00	-5.070463e+00	-4.890856e+00	-5.000000e+00
1.795725610561200e-04	-3.306076e+00	-4.795059e+00	-5.070463e+00	-4.795059e+00	-5.000000e+00
1.806914979874127e-04	-3.260320e+00	-4.683685e+00	-5.070463e+00	-4.683685e+00	-5.000000e+00
1.820533350133903e-04	-3.191014e+00	-4.516976e+00	-5.070463e+00	-4.516976e+00	-5.000000e+00
1.839371443236752e-04	-3.072012e+00	-4.232187e+00	-5.070463e+00	-4.232187e+00	-5.000000e+00
1.858677061223675e-04	-2.923328e+00	-3.878925e+00	-5.070463e+00	-3.878925e+00	-5.000000e+00
1.882640092157630e-04	-2.704727e+00	-3.361806e+00	-5.070463e+00	-3.361806e+00	-5.000000e+00
1.911351404319142e-04	-2.399656e+00	-2.643191e+00	-5.070463e+00	-2.643191e+00	-5.000000e+00
1.948784456370980e-04	-1.947101e+00	-1.581358e+00	-5.070463e+00	-1.581358e+00	-5.000000e+00
2.013712040416938e-04	-1.085723e+00	4.302437e-01	-5.070463e+00	4.302437e-01	-5.000000e+00
2.078514398483459e-04	-2.495697e-01	2.367765e+00	-5.070463e+00	2.367765e+00	-5.000000e+00
2.139828605197642e-04	3.928849e-01	3.849132e+00	-5.070463e+00	3.849132e+00	-5.000000e+00
2.200987376283018e-04	7.949648e-01	4.764777e+00	-5.070463e+00	4.764777e+00	-5.000000e+00
2.246298461911794e-04	9.017497e-01	4.998648e+00	-5.070463e+00	4.998648e+00	-5.000000e+00
2.263623997221057e-04	8.972652e-01	4.981692e+00	-5.070463e+00	4.981692e+00	-5.000000e+00
2.287173756497848e-04	8.502721e-01	4.864232e+00	-5.070463e+00	4.864232e+00	-5.000000e+00
2.311939323150934e-04	7.516769e-01	4.626110e+00	-5.070463e+00	4.626110e+00	-5.000000e+00
2.334526479550834e-04	6.198550e-01	4.311264e+00	-5.070463e+00	4.311264e+00	-5.000000e+00
2.371131748918196e-04	3.282130e-01	3.620412e+00	-5.070463e+00	3.620412e+00	-5.000000e+00
2.419575628741681e-04	-1.811613e-01	2.420443e+00	-5.070463e+00	2.420443e+00	-5.000000e+00
2.471402167459487e-04	-8.331851e-01	8.936006e-01	-5.070463e+00	8.936006e-01	-5.000000e+00
2.527219217247020e-04	-1.581864e+00	-8.509545e-01	-5.070463e+00	-8.509545e-01	-5.000000e+00
2.593923519625657e-04	-2.416059e+00	-2.782382e+00	-5.070463e+00	-2.782382e+00	-5.000000e+00
2.665323526663682e-04	-3.079720e+00	-4.308875e+00	-5.070463e+00	-4.308875e+00	-5.000000e+00
2.731052593442686e-04	-3.369046e+00	-4.964610e+00	-5.070463e+00	-4.964610e+00	-5.000000e+00
2.757929498565291e-04	-3.385159e+00	-4.993795e+00	-5.070463e+00	-4.993795e+00	-5.000000e+00
2.777909688483368e-04	-3.358104e+00	-4.923317e+00	-5.070463e+00	-4.923317e+00	-5.000000e+00
2.810356123054217e-04	-3.244195e+00	-4.644752e+00	-5.070463e+00	-4.644752e+00	-5.000000e+00
2.847067538134383e-04	-3.015862e+00	-4.098546e+00	-5.070463e+00	-4.098546e+00	-5.000000e+00
2.907659072224372e-04	-2.441621e+00	-2.740936e+00	-5.070463e+00	-2.740936e+00	-5.000000e+00
2.976229515240064e-04	-1.589227e+00	-7.439986e-01	-5.070463e+00	-7.439986e-01	-5.000000e+00
3.044992365920259e-04	-6.702969e-01	1.394725e+00	-5.070463e+00	1.394725e+00	-5.000000e+00
3.108629023664094e-04	9.089993e-02	3.153816e+00	-5.070463e+00	3.153816e+00	-5.000000e+00
3.172201408967265e-04	6.400568e-01	4.414431e+00	-5.070463e+00	4.414431e+00	-5.000000e+00
3.232539658435898e-04	8.876545e-01	4.969941e+00	-5.070463e+00	4.969941e+00	-5.000000e+00
3.258488321556106e-04	9.011443e-01	4.992890e+00	-5.070463e+00	4.992890e+00	-5.000000e+00
3.278819163197258e-04	8.722747e-01	4.918252e+00	-5.070463e+00	4.918252e+00	-5.000000e+00
3.305091719253460e-04	7.838967e-01	4.703427e+00	-5.070463e+00	4.703427e+00	-5.000000e+00
3.332120238107000e-04	6.356621e-01	4.349056e+00	-5.070463e+00	4.349056e+00	-5.000000e+00
3.366933036464634e-04	3.662676e-01	3.710119e+00	-5.070463e+00	3.710119e+00	-5.000000e+00
3.418384369188032e-04	-1.673056e-01	2.453122e+00	-5.070463e+00	2.453122e+00	-5.000000e+00
3.483090537568999e-04	-9.884278e-01	5.302276e-01	-5.070463e+00	5.302276e-01	-5.000000e+00
3.555547774863014e-04	-1.952100e+00	-1.709871e+00	-5.070463e+00	-1.709871e+00	-5.000000e+00
3.636990152367170e-04	-2.854036e+00	-3.791608e+00	-5.070463e+00	-3.791608e+00	-5.000000e+00
3.717178217099057e-04	-3.337148e+00	-4.894054e+00	-5.070463e+00	-4.894054e+00	-5.000000e+00
3.752654886435037e-04	-3.386693e+00	-4.999304e+00	-5.070463e+00	-4.999304e+00	-5.000000e+00
3.769322923418464e-04	-3.373844e+00	-4.963194e+00	-5.070463e+00	-4.963194e+00	-5.000000e+00
3.796434069431889e-04	-3.303518e+00	-4.788704e+00	-5.070463e+00	-4.788704e+00	-5.000000e+00
3.823737661034455e-04	-3.172681e+00	-4.472897e+00	-5.070463e+00	-4.472897e+00	-5.000000e+00
3.854715593554068e-04	-2.956019e+00	-3.956245e+00	-5.070463e+00	-3.956245e+00	-5.000000e+00
3.900445591031733e-04	-2.520641e+00	-2.927590e+00	-5.070463e+00	-2.927590e+00	-5.000000e+00
3.967157793254362e-04	-1.709559e+00	-1.024462e+00	-5.070463e+00	-1.024462e+00	-5.000000e+00
4.039466880186560e-04	-7.423536e-01	1.227220e+00	-5.070463e+00	1.227220e+00	-5.000000e+00
4.102975317754638e-04	3.011799e-02	3.014029e+00	-5.070463e+00	3.014029e+00	-5.000000e+00
4.166464811082735e-04	6.018121e-01	4.326953e+00	-5.070463e+00	4.326953e+00	-5.000000e+00
4.220436445263242e-04	8.617752e-01	4.913987e+00	-5.070463e+00	4.913987e+00	-5.000000e+00
4.253905137265152e-04	9.028902e-01	4.998495e+00	-5.070463e+00	4.998495e+00	-5.000000e+00
4.271358561176030e-04	8.869832e-01	4.955044e+00	-5.070463e+00	4.955044e+00	-5.000000e+00
4.299738295830043e-04	8.064087e-01	4.757817e+00	-5.070463e+00	4.757817e+00	-5.000000e+00
4.342106903944488e-04	5.671427e-01	4.185804e+00	-5.070463e+00	4.185804e+00	-5.000000e+00
4.382793452318307e-04	2.171077e-01	3.358238e+00	-5.070463e+00	3.358238e+00	-5.000000e+00
4.433274792450561e-04	-3.451864e-01	2.035363e+00	-5.070463e+00	2.035363e+00	-5.000000e+00
4.487966991763407e-04	-1.054190e+00	3.776681e-01	-5.070463e+00	3.776681e-01	-5.000000e+00
4.542149976303591e-04	-1.779203e+00	-1.308756e+00	-5.070463e+00	-1.308756e+00	-5.000000e+00
4.610346096612894e-04	-2.595101e+00	-3.195490e+00	-5.070463e+00	-3.195490e+00	-5.000000e+00
4.687679673297222e-04	-3.216603e+00	-4.621555e+00	-5.070463e+00	-4.621555e+00	-5.000000e+00
4.740843693504542e-04	-3.381962e+00	-4.991728e+00	-5.070463e+00	-4.991728e+00	-5.000000e+00
4.761593597494680e-04	-3.382638e+00	-4.986740e+00	-5.070463e+00	-4.986740e+00	-5.000000e+00
4.783871629016683e-04	-3.343669e+00	-4.887194e+00	-5.070463e+00	-4.887194e+00	-5.000000e+00
4.819993508758227e-04	-3.194083e+00	-4.524222e+00	-5.070463e+00	-4.524222e+00	-5.000000e+00
4.866210035831931e-04	-2.858659e+00	-3.725308e+00	-5.070463e+00	-3.725308e+00	-5.000000e+00
4.945317904213102e-04	-1.991826e+00	-1.684289e+00	-5.070463e+00	-1.684289e+00	-5.000000e+00
5.000000000000000e-04	-1.269395e+00	0.000000e+00	-5.070463e+00	0.000000e+00	-5.000000e+00
5.000001000000000e-04	-1.269377e+00	3.141593e-05	-5.070463e+00	3.141593e-05	-4.000000e+00
5.000003000000000e-04	-1.269333e+00	9.424778e-05	-5.070463e+00	9.424778e-05	-2.000000e+00
5.000006257005627e-04	-1.269220e+00	1.965696e-04	-5.070463e+00	1.965696e-04	1.257006e+00
5.000009413995042e-04	-1.269067e+00	2.957494e-04	-5.070463e+00	2.957494e-04	4.413995e+00
5.000010000000000e-04	-1.269033e+00	3.141593e-04	-5.070463e+00	3.141593e-04	5.000000e+00
5.000010175801487e-04	-1.269023e+00	3.196822e-04	-5.070463e+00	3.196822e-04	5.000000e+00
5.000010879007438e-04	-1.268982e+00	3.417741e-04	-5.070463e+00	3.417741e-04	5.000000e+00
5.000011816615372e-04	-1.268928e+00	3.712299e-04	-5.070463e+00	3.712299e-04	5.000000e+00
5.000013691831240e-04	-1.268823e+00	4.301416e-04	-5.070463e+00	4.301416e-04	5.000000e+00
5.000017442262976e-04	-1.268619e+00	5.479648e-04	-5.070463e+00	5.479648e-04	5.000000e+00
5.000024943126448e-04	-1.268240e+00	7.836114e-04	-5.070463e+00	7.836114e-04	5.000000e+00
5.000039944853392e-04	-1.267580e+00	1.254905e-03	-5.070463e+00	1.254905e-03	5.000000e+00
5.000069948307280e-04	-1.266545e+00	2.197491e-03	-5.070463e+00	2.197491e-03	5.000000e+00
5.000102704534120e-04	-1.265699e+00	3.226558e-03	-5.070463e+00	3.226558e-03	5.000000e+00
5.000147049935645e-04	-1.264773e+00	4.619709e-03	-5.070463e+00	4.619709e-03	5.000000e+00
5.000197324751887e-04	-1.263848e+00	6.199138e-03	-5.070463e+00	6.199138e-03	5.000000e+00
5.000260229413441e-04	-1.262756e+00	8.175344e-03	-5.070463e+00	8.175344e-03	5.000000e+00
5.000331278838767e-04	-1.261539e+00	1.040742e-02	-5.070463e+00	1.040742e-02	5.000000e+00
5.000457048511774e-04	-1.259319e+00	1.435858e-02	-5.070463e+00	1.435858e-02	5.000000e+00
5.000708587857790e-04	-1.254528e+00	2.226087e-02	-5.070463e+00	2.226087e-02	5.000000e+00
5.001159762249647e-04	-1.244988e+00	3.643468e-02	-5.070463e+00	3.643468e-02	5.000000e+00
5.001688658037449e-04	-1.232836e+00	5.304976e-02	-5.070463e+00	5.304976e-02	5.000000e+00
5.002379313100408e-04	-1.216198e+00	7.474554e-02	-5.070463e+00	7.474554e-02	5.000000e+00
5.002919790189114e-04	-1.202844e+00	9.172277e-02	-5.070463e+00	9.172277e-02	5.000000e+00
5.003511637305741e-04	-1.188066e+00	1.103124e-01	-5.070463e+00	1.103124e-01	5.000000e+00
5.003823707987511e-04	-1.180260e+00	1.201138e-01	-5.070463e+00	1.201138e-01	5.000000e+00
5.004135398363499e-04	-1.172504e+00	1.299028e-01	-5.070463e+00	1.299028e-01	5.000000e+00
5.004393616449301e-04	-1.166208e+00	1.380120e-01	-5.070463e+00	1.380120e-01	5.000000e+00
5.004554449877393e-04	-1.162324e+00	1.430627e-01	-5.070463e+00	1.430627e-01	5.000000e+00
5.004722313400841e-04	-1.158214e+00	1.483341e-01	-5.070463e+00	1.483341e-01	5.000000e+00
5.004920438006394e-04	-1.153274e+00	1.545555e-01	-5.070463e+00	1.545555e-01	5.000000e+00
5.005124466536252e-04	-1.148125e+00	1.609620e-01	-5.070463e+00	1.609620e-01	5.000000e+00
5.005498306104017e-04	-1.138687e+00	1.727000e-01	-5.070463e+00	1.727000e-01	5.000000e+00
5.005851857302891e-04	-1.129782e+00	1.838001e-01	-5.070463e+00	1.838001e-01	5.000000e+00
5.006280306335333e-04	-1.119017e+00	1.972504e-01	-5.070463e+00	1.972504e-01	5.000000e+00
5.006646955606307e-04	-1.109821e+00	2.087596e-01	-5.070463e+00	2.087596e-01	5.000000e+00
5.006991494019747e-04	-1.101189e+00	2.195736e-01	-5.070463e+00	2.195736e-01	5.000000e+00
5.007336777426092e-04	-1.092558e+00	2.304100e-01	-5.070463e+00	2.304100e-01	5.000000e+00
5.007711221820029e-04	-1.083534e+00	2.421604e-01	-5.070463e+00	2.421604e-01	5.000000e+00
5.008212961826116e-04	-1.074695e+00	2.579033e-01	-5.070463e+00	2.579033e-01	5.000000e+00
5.008716093066259e-04	-1.072631e+00	2.736873e-01	-5.070463e+00	2.736873e-01	5.000000e+00
5.009293908607800e-04	-1.078070e+00	2.918108e-01	-5.070463e+00	2.918108e-01	5.000000e+00
5.010030804313269e-04	-1.091510e+00	3.149184e-01	-5.070463e+00	3.149184e-01	5.000000e+00
5.010719992419587e-04	-1.107024e+00	3.365239e-01	-5.070463e+00	3.365239e-01	5.000000e+00
5.011419691100232e-04	-1.123819e+00	3.584524e-01	-5.070463e+00	3.584524e-01	5.000000e+00
5.012258632218804e-04	-1.144444e+00	3.847356e-01	-5.070463e+00	3.847356e-01	5.000000e+00
5.013372343214024e-04	-1.172072e+00	4.196104e-01	-5.070463e+00	4.196104e-01	5.000000e+00
5.015186454716189e-04	-1.217146e+00	4.763729e-01	-5.070463e+00	4.763729e-01	5.000000e+00
5.017754887210635e-04	-1.280754e+00	5.566300e-01	-5.070463e+00	5.566300e-01	5.000000e+00
5.021405510035897e-04	-1.370059e+00	6.704484e-01	-5.070463e+00	6.704484e-01	5.000000e+00
5.027258732800429e-04	-1.504862e+00	8.521777e-01	-5.070463e+00	8.521777e-01	5.000000e+00
5.032697428319146e-04	-1.611042e+00	1.020009e+00	-5.070463e+00	1.020009e+00	5.000000e+00
5.039114670688504e-04	-1.707814e+00	1.216491e+00	-5.070463e+00	1.216491e+00	5.000000e+00
5.043374026754653e-04	-1.762364e+00	1.345830e+00	-5.070463e+00	1.345830e+00	5.000000e+00
5.047044754368308e-04	-1.809436e+00	1.456526e+00	-5.070463e+00	1.456526e+00	5.000000e+00
5.051359881869189e-04	-1.865451e+00	1.585659e+00	-5.070463e+00	1.585659e+00	5.000000e+00
5.057931243714435e-04	-1.950011e+00	1.780041e+00	-5.070463e+00	1.780041e+00	5.000000e+00
5.066810504157210e-04	-2.061988e+00	2.037811e+00	-5.070463e+00	2.037811e+00	5.000000e+00
5.080655317907021e-04	-2.231450e+00	2.426789e+00	-5.070463e+00	2.426789e+00	5.000000e+00
5.094046088880829e-04	-2.388277e+00	2.785581e+00	-5.070463e+00	2.785581e+00	5.000000e+00
5.114098496139448e-04	-2.607303e+00	3.285262e+00	-5.070463e+00	3.285262e+00	5.000000e+00
5.135692225847398e-04	-2.818717e+00	3.764901e+00	-5.070463e+00	3.764901e+00	5.000000e+00
5.154648214064589e-04	-2.980259e+00	4.129181e+00	-5.070463e+00	4.129181e+00	5.000000e+00
5.176356614601257e-04	-3.134542e+00	4.474219e+00	-5.070463e+00	4.474219e+00	5.000000e+00
